time;V(1);V(2)
0.000022676;-0.000000000;-0.000000000
0.000045351;0.002350697;0.002350670
0.000068027;0.004700817;0.004700710
0.000090703;0.007049782;0.007049542
0.000113379;0.009397017;0.009396590
0.000136054;0.011741942;0.011741276
0.000158730;0.014083983;0.014083025
0.000181406;0.016422565;0.016421261
0.000204082;0.018757115;0.018755411
0.000226757;0.021087056;0.021084901
0.000249433;0.023411817;0.023409158
0.000272109;0.025730829;0.025727612
0.000294785;0.028043523;0.028039696
0.000317460;0.030349327;0.030344838
0.000340136;0.032647673;0.032642470
0.000362812;0.034938006;0.034932037
0.000385488;0.037219756;0.037212970
0.000408163;0.039492365;0.039484709
0.000430839;0.041755270;0.041746693
0.000453515;0.044007922;0.043998373
0.000476190;0.046249768;0.046239196
0.000498866;0.048480245;0.048468599
0.000521542;0.050698824;0.050686053
0.000544218;0.052904945;0.052891000
0.000566893;0.055098077;0.055082908
0.000589569;0.057277671;0.057261228
0.000612245;0.059443195;0.059425430
0.000634921;0.061594124;0.061574987
0.000657596;0.063729921;0.063709363
0.000680272;0.065850065;0.065828038
0.000702948;0.067954034;0.067930491
0.000725624;0.070041322;0.070016215
0.000748299;0.072111399;0.072084681
0.000770975;0.074163759;0.074135383
0.000793651;0.076197910;0.076167830
0.000816327;0.078213346;0.078181516
0.000839002;0.080209568;0.080175942
0.000861678;0.082186091;0.082150624
0.000884354;0.084142423;0.084105071
0.000907029;0.086078095;0.086038815
0.000929705;0.087992623;0.087951370
0.000952381;0.089885537;0.089842268
0.000975057;0.091756376;0.091711049
0.000997732;0.093604677;0.093557249
0.001020408;0.095429979;0.095380409
0.001043084;0.097231857;0.097180104
0.001065760;0.099009841;0.098955865
0.001088435;0.100763515;0.100707275
0.001111111;0.102492431;0.102433888
0.001133787;0.104196180;0.104135294
0.001156463;0.105874337;0.105811071
0.001179138;0.107526484;0.107460800
0.001201814;0.109152220;0.109084081
0.001224490;0.110751149;0.110680518
0.001247166;0.112322877;0.112249718
0.001269841;0.113867016;0.113791295
0.001292517;0.115383186;0.115304867
0.001315193;0.116871015;0.116790065
0.001337868;0.118330145;0.118246530
0.001360544;0.119760196;0.119673884
0.001383220;0.121160848;0.121071806
0.001405896;0.122531736;0.122439933
0.001428571;0.123872524;0.123777929
0.001451247;0.125182899;0.125085483
0.001473923;0.126462504;0.126362237
0.001496599;0.127711056;0.127607910
0.001519274;0.128928257;0.128822203
0.001541950;0.130113779;0.130004790
0.001564626;0.131267338;0.131155389
0.001587302;0.132388667;0.132273731
0.001609977;0.133477468;0.133359520
0.001632653;0.134533487;0.134412503
0.001655329;0.135556471;0.135432428
0.001678005;0.136546152;0.136419026
0.001700680;0.137502291;0.137372061
0.001723356;0.138424665;0.138291309
0.001746032;0.139313035;0.139176534
0.001768707;0.140167193;0.140027526
0.001791383;0.140986915;0.140844064
0.001814059;0.141772023;0.141625969
0.001836735;0.142522292;0.142373019
0.001859410;0.143237560;0.143085050
0.001882086;0.143917647;0.143761885
0.001904762;0.144562389;0.144403360
0.001927438;0.145171623;0.145009312
0.001950113;0.145745199;0.145579594
0.001972789;0.146282984;0.146114071
0.001995465;0.146784827;0.146612596
0.002018141;0.147250611;0.147075050
0.002040816;0.147680246;0.147501344
0.002063492;0.148073612;0.147891361
0.002086168;0.148430590;0.148244982
0.002108844;0.148751121;0.148562148
0.002131519;0.149035115;0.148842770
0.002154195;0.149282498;0.149086775
0.002176871;0.149493225;0.149294119
0.002199546;0.149667222;0.149464729
0.002222222;0.149804473;0.149598589
0.002244898;0.149904919;0.149695642
0.002267574;0.149968546;0.149755873
0.002290249;0.149995338;0.149779269
0.002312925;0.149985295;0.149765830
0.002335601;0.149938402;0.149715542
0.002358277;0.149854689;0.149628435
0.002380952;0.149734172;0.149504526
0.002403628;0.149576879;0.149343845
0.002426304;0.149382826;0.149146408
0.002448980;0.149152103;0.148912305
0.002471655;0.148884738;0.148641566
0.002494331;0.148580806;0.148334268
0.002517007;0.148240398;0.147990500
0.002539683;0.147863557;0.147610308
0.002562358;0.147450403;0.147193811
0.002585034;0.147001025;0.146741101
0.002607710;0.146515558;0.146252311
0.002630385;0.145994090;0.145727533
0.002653061;0.145436770;0.145166915
0.002675737;0.144843734;0.144570594
0.002698413;0.144215100;0.143938689
0.002721088;0.143551061;0.143271394
0.002743764;0.142851767;0.142568859
0.002766440;0.142117382;0.141831249
0.002789116;0.141348084;0.141058744
0.002811791;0.140544067;0.140251538
0.002834467;0.139705540;0.139409840
0.002857143;0.138832712;0.138533860
0.002879819;0.137925761;0.137623778
0.002902494;0.136984940;0.136679847
0.002925170;0.136010473;0.135702292
0.002947846;0.135002599;0.134691352
0.002970522;0.133961555;0.133647266
0.002993197;0.132887625;0.132570318
0.003015873;0.131781048;0.131460747
0.003038549;0.130642107;0.130318838
0.003061224;0.129471083;0.129144873
0.003083900;0.128268247;0.127939122
0.003106576;0.127033911;0.126701898
0.003129252;0.125768372;0.125433500
0.003151927;0.124471944;0.124134243
0.003174603;0.123144947;0.122804446
0.003197279;0.121787693;0.121444423
0.003219955;0.120400534;0.120054526
0.003242630;0.118983797;0.118635083
0.003265306;0.117537847;0.117186459
0.003287982;0.116063019;0.115708991
0.003310658;0.114559671;0.114203036
0.003333333;0.113028206;0.112668998
0.003356009;0.111468972;0.111107228
0.003378685;0.109882359;0.109518113
0.003401361;0.108268752;0.107902041
0.003424036;0.106628563;0.106259424
0.003446712;0.104962185;0.104590656
0.003469388;0.103270022;0.102896140
0.003492063;0.101552483;0.101176287
0.003514739;0.099810007;0.099431536
0.003537415;0.098043027;0.097662322
0.003560091;0.096251959;0.095869060
0.003582766;0.094437252;0.094052199
0.003605442;0.092599337;0.092212172
0.003628118;0.090738690;0.090349456
0.003650794;0.088855752;0.088464490
0.003673469;0.086950999;0.086557753
0.003696145;0.085024879;0.084629692
0.003718821;0.083077875;0.082680791
0.003741497;0.081110471;0.080711535
0.003764172;0.079123138;0.078722394
0.003786848;0.077116375;0.076713868
0.003809524;0.075090672;0.074686449
0.003832200;0.073046522;0.072640629
0.003854875;0.070984432;0.070576915
0.003877551;0.068904908;0.068495814
0.003900227;0.066808464;0.066397840
0.003922902;0.064695606;0.064283501
0.003945578;0.062566857;0.062153319
0.003968254;0.060422742;0.060007818
0.003990930;0.058263789;0.057847529
0.004013605;0.056090520;0.055672973
0.004036281;0.053903476;0.053484691
0.004058957;0.051703195;0.051283223
0.004081633;0.049490212;0.049069102
0.004104308;0.047265070;0.046842873
0.004126984;0.045028324;0.044605090
0.004149660;0.042780521;0.042356301
0.004172336;0.040522206;0.040097051
0.004195011;0.038253934;0.037827895
0.004217687;0.035976274;0.035549403
0.004240363;0.033689774;0.033262123
0.004263039;0.031395000;0.030966621
0.004285714;0.029092514;0.028663459
0.004308390;0.026782880;0.026353201
0.004331066;0.024466672;0.024036422
0.004353741;0.022144453;0.021713684
0.004376417;0.019816795;0.019385560
0.004399093;0.017484268;0.017052620
0.004421769;0.015147449;0.014715441
0.004444444;0.012806909;0.012374594
0.004467120;0.010463223;0.010030653
0.004489796;0.008116967;0.007684197
0.004512472;0.005768718;0.005335800
0.004535147;0.003419050;0.002986038
0.004557823;0.001068544;0.000635491
0.004580499;-0.001282225;-0.001715266
0.004603175;-0.003632679;-0.004065654
0.004625850;-0.005982240;-0.006415097
0.004648526;-0.008330333;-0.008763017
0.004671202;-0.010676378;-0.011108837
0.004693878;-0.013019802;-0.013451983
0.004716553;-0.015360029;-0.015791878
0.004739229;-0.017696481;-0.018127945
0.004761905;-0.020028588;-0.020459615
0.004784580;-0.022355775;-0.022786311
0.004807256;-0.024677472;-0.025107466
0.004829932;-0.026993109;-0.027422507
0.004852608;-0.029302113;-0.029730863
0.004875283;-0.031603921;-0.032031971
0.004897959;-0.033897969;-0.034325266
0.004920635;-0.036183686;-0.036610180
0.004943311;-0.038460519;-0.038886157
0.004965986;-0.040727905;-0.041152635
0.004988662;-0.042985285;-0.043409056
0.005011338;-0.045232112;-0.045654873
0.005034014;-0.047467826;-0.047889527
0.005056689;-0.049691881;-0.050112470
0.005079365;-0.051903732;-0.052323160
0.005102041;-0.054102835;-0.054521052
0.005124717;-0.056288646;-0.056705602
0.005147392;-0.058460638;-0.058876283
0.005170068;-0.060618264;-0.061032550
0.005192744;-0.062761001;-0.063173879
0.005215420;-0.064888327;-0.065299748
0.005238095;-0.066999717;-0.067409633
0.005260771;-0.069094649;-0.069503013
0.005283447;-0.071172609;-0.071579373
0.005306122;-0.073233090;-0.073638208
0.005328798;-0.075275571;-0.075678996
0.005351474;-0.077299582;-0.077701268
0.005374150;-0.079304602;-0.079704504
0.005396825;-0.081290133;-0.081688204
0.005419501;-0.083255711;-0.083651907
0.005442177;-0.085200822;-0.085595100
0.005464853;-0.087125021;-0.087517336
0.005487528;-0.089027822;-0.089418131
0.005510204;-0.090908748;-0.091297009
0.005532880;-0.092767346;-0.093153515
0.005555556;-0.094603168;-0.094987204
0.005578231;-0.096415745;-0.096797606
0.005600907;-0.098204637;-0.098584283
0.005623583;-0.099969419;-0.100346810
0.005646259;-0.101709645;-0.102084741
0.005668934;-0.103424882;-0.103797644
0.005691610;-0.105114721;-0.105485110
0.005714286;-0.106778744;-0.107146722
0.005736961;-0.108416542;-0.108782072
0.005759637;-0.110027705;-0.110390750
0.005782313;-0.111611838;-0.111972361
0.005804989;-0.113168560;-0.113526527
0.005827664;-0.114697493;-0.115052868
0.005850340;-0.116198256;-0.116551005
0.005873016;-0.117670469;-0.118020559
0.005895692;-0.119113789;-0.119461186
0.005918367;-0.120527844;-0.120872517
0.005941043;-0.121912306;-0.122254222
0.005963719;-0.123266811;-0.123605939
0.005986395;-0.124591051;-0.124927362
0.006009070;-0.125884686;-0.126218149
0.006031746;-0.127147393;-0.127477980
0.006054422;-0.128378884;-0.128706566
0.006077098;-0.129578830;-0.129903580
0.006099773;-0.130746962;-0.131068753
0.006122449;-0.131882969;-0.132201775
0.006145125;-0.132986596;-0.133302391
0.006167800;-0.134057545;-0.134370306
0.006190476;-0.135095579;-0.135405281
0.006213152;-0.136100429;-0.136407049
0.006235828;-0.137071841;-0.137375357
0.006258503;-0.138009592;-0.138309983
0.006281179;-0.138913444;-0.139210689
0.006303855;-0.139783174;-0.140077251
0.006326531;-0.140618586;-0.140909478
0.006349206;-0.141419444;-0.141707132
0.006371882;-0.142185568;-0.142470034
0.006394558;-0.142916780;-0.143198007
0.006417234;-0.143612870;-0.143890842
0.006439909;-0.144273706;-0.144548407
0.006462585;-0.144899107;-0.145170524
0.006485261;-0.145488910;-0.145757028
0.006507937;-0.146042966;-0.146307773
0.006530612;-0.146561156;-0.146822639
0.006553288;-0.147043360;-0.147301509
0.006575964;-0.147489445;-0.147744249
0.006598639;-0.147899306;-0.148150755
0.006621315;-0.148272840;-0.148520925
0.006643991;-0.148609940;-0.148854654
0.006666667;-0.148910549;-0.149151884
0.006689342;-0.149174591;-0.149412540
0.006712018;-0.149401977;-0.149636536
0.006734694;-0.149592677;-0.149823841
0.006757370;-0.149746632;-0.149974397
0.006780045;-0.149863812;-0.150088175
0.006802721;-0.149944172;-0.150165131
0.006825397;-0.149987712;-0.150205265
0.006848073;-0.149994418;-0.150208565
0.006870748;-0.149964274;-0.150175015
0.006893424;-0.149897295;-0.150104631
0.006916100;-0.149793496;-0.149997430
0.006938776;-0.149652907;-0.149853442
0.006961451;-0.149475573;-0.149672711
0.006984127;-0.149261523;-0.149455270
0.007006803;-0.149010803;-0.149201163
0.007029478;-0.148723486;-0.148910467
0.007052154;-0.148399632;-0.148583240
0.007074830;-0.148039331;-0.148219574
0.007097506;-0.147642687;-0.147819573
0.007120181;-0.147209760;-0.147383299
0.007142857;-0.146740683;-0.146910886
0.007165533;-0.146235561;-0.146402438
0.007188209;-0.145694528;-0.145858092
0.007210884;-0.145117704;-0.145277967
0.007233560;-0.144505237;-0.144662212
0.007256236;-0.143857276;-0.144010979
0.007278912;-0.143173986;-0.143324431
0.007301587;-0.142455515;-0.142602717
0.007324263;-0.141702071;-0.141846049
0.007346939;-0.140913820;-0.141054590
0.007369615;-0.140090953;-0.140228535
0.007392290;-0.139233681;-0.139368092
0.007414966;-0.138342212;-0.138473473
0.007437642;-0.137416754;-0.137544885
0.007460317;-0.136457545;-0.136582569
0.007482993;-0.135464840;-0.135586778
0.007505669;-0.134438846;-0.134557721
0.007528345;-0.133379832;-0.133495668
0.007551020;-0.132288067;-0.132400888
0.007573696;-0.131163802;-0.131273634
0.007596372;-0.130007307;-0.130114175
0.007619048;-0.128818895;-0.128922826
0.007641723;-0.127598848;-0.127699870
0.007664399;-0.126347450;-0.126445590
0.007687075;-0.125065029;-0.125160316
0.007709751;-0.123751882;-0.123844346
0.007732426;-0.122408345;-0.122498016
0.007755102;-0.121034738;-0.121121647
0.007777778;-0.119631397;-0.119715575
0.007800454;-0.118198686;-0.118280166
0.007823129;-0.116736941;-0.116815756
0.007845805;-0.115246512;-0.115322695
0.007868481;-0.113727779;-0.113801364
0.007891156;-0.112181122;-0.112252144
0.007913832;-0.110606914;-0.110675408
0.007936508;-0.109005518;-0.109071521
0.007959184;-0.107377369;-0.107440917
0.007981859;-0.105722838;-0.105783968
0.008004535;-0.104042342;-0.104101092
0.008027211;-0.102336291;-0.102392700
0.008049887;-0.100605102;-0.100659210
0.008072562;-0.098849201;-0.098901046
0.008095238;-0.097069026;-0.097118649
0.008117914;-0.095265002;-0.095312443
0.008140590;-0.093437585;-0.093482885
0.008163265;-0.091587220;-0.091630421
0.008185941;-0.089714362;-0.089755507
0.008208617;-0.087819466;-0.087858597
0.008231293;-0.085902994;-0.085940154
0.008253968;-0.083965422;-0.084000656
0.008276644;-0.082007235;-0.082040586
0.008299320;-0.080028894;-0.080060408
0.008321995;-0.078030915;-0.078060635
0.008344671;-0.076013750;-0.076041724
0.008367347;-0.073977930;-0.074004202
0.008390023;-0.071923931;-0.071948548
0.008412698;-0.069852267;-0.069875276
0.008435374;-0.067763452;-0.067784901
0.008458050;-0.065657985;-0.065677921
0.008480726;-0.063536396;-0.063554867
0.008503401;-0.061399202;-0.061416256
0.008526077;-0.059246925;-0.059262610
0.008548753;-0.057080097;-0.057094463
0.008571429;-0.054899251;-0.054912347
0.008594104;-0.052704920;-0.052716796
0.008616780;-0.050497640;-0.050508345
0.008639456;-0.048277959;-0.048287544
0.008662132;-0.046046421;-0.046054936
0.008684807;-0.043803573;-0.043811069
0.008707483;-0.041549970;-0.041556499
0.008730159;-0.039286156;-0.039291769
0.008752834;-0.037012695;-0.037017442
0.008775510;-0.034730140;-0.034734073
0.008798186;-0.032439058;-0.032442230
0.008820862;-0.030140008;-0.030142470
0.008843537;-0.027833552;-0.027835357
0.008866213;-0.025520262;-0.025521462
0.008888889;-0.023200705;-0.023201352
0.008911565;-0.020875448;-0.020875596
0.008934240;-0.018545063;-0.018544764
0.008956916;-0.016210125;-0.016209432
0.008979592;-0.013871205;-0.013870171
0.009002268;-0.011528877;-0.011527555
0.009024943;-0.009183717;-0.009182161
0.009047619;-0.006836303;-0.006834564
0.009070295;-0.004487209;-0.004485342
0.009092971;-0.002137013;-0.002135071
0.009115646;0.000213708;0.000215672
0.009138322;0.002564377;0.002566309
0.009160998;0.004914416;0.004916263
0.009183673;0.007263247;0.007264957
0.009206349;0.009610294;0.009611812
0.009229025;0.011954982;0.011956255
0.009251701;0.014296733;0.014297709
0.009274376;0.016634972;0.016635597
0.009297052;0.018969125;0.018969346
0.009319728;0.021298619;0.021298384
0.009342404;0.023622883;0.023622139
0.009365079;0.025941344;0.025940037
0.009387755;0.028253434;0.028251513
0.009410431;0.030558582;0.030555994
0.009433107;0.032856228;0.032852921
0.009455782;0.035145801;0.035141724
0.009478458;0.037426743;0.037421843
0.009501134;0.039698491;0.039692717
0.009523810;0.041960491;0.041953790
0.009546485;0.044212179;0.044204502
0.009569161;0.046453015;0.046444310
0.009591837;0.048682434;0.048672651
0.009614512;0.050899902;0.050888990
0.009637188;0.053104869;0.053092778
0.009659864;0.055296786;0.055283466
0.009682540;0.057475125;0.057460527
0.009705215;0.059639349;0.059623424
0.009727891;0.061788922;0.061771620
0.009750567;0.063923318;0.063904592
0.009773243;0.066042017;0.066021817
0.009795918;0.068144488;0.068122768
0.009818594;0.070230226;0.070206937
0.009841270;0.072298717;0.072273812
0.009863946;0.074349445;0.074322878
0.009886621;0.076381913;0.076353638
0.009909297;0.078395620;0.078365591
0.009931973;0.080390076;0.080358247
0.009954649;0.082364781;0.082331107
0.009977324;0.084319258;0.084283695
0.010000000;0.086253022;0.086215527
0.010022676;0.088165606;0.088126134
0.010045351;0.090056531;0.090015039
0.010068027;0.091925343;0.091881789
0.010090703;0.093771566;0.093725907
0.010113379;0.095594767;0.095546962
0.010136054;0.097394484;0.097344492
0.010158730;0.099170278;0.099118059
0.010181406;0.100921717;0.100867230
0.010204082;0.102648361;0.102591567
0.010226757;0.104349800;0.104290661
0.010249433;0.106025610;0.105964087
0.010272109;0.107675373;0.107611429
0.010294785;0.109298687;0.109232285
0.010317460;0.110895165;0.110826268
0.010340136;0.112464397;0.112392969
0.010362812;0.114006010;0.113932016
0.010385488;0.115519618;0.115443023
0.010408163;0.117004854;0.116925624
0.010430839;0.118461354;0.118379456
0.010453515;0.119888753;0.119804155
0.010476190;0.121286708;0.121199377
0.010498866;0.122654876;0.122564781
0.010521542;0.123992914;0.123900026
0.010544218;0.125300496;0.125204783
0.010566893;0.126577300;0.126478733
0.010589569;0.127823021;0.127721572
0.010612245;0.129037346;0.128932987
0.010634921;0.130219977;0.130112681
0.010657596;0.131370616;0.131260357
0.010680272;0.132488994;0.132375746
0.010702948;0.133574830;0.133458568
0.010725624;0.134627854;0.134508553
0.010748299;0.135647813;0.135525451
0.010770975;0.136634469;0.136509022
0.010793651;0.137587538;0.137458986
0.010816327;0.138506827;0.138375148
0.010839002;0.139392113;0.139257286
0.010861678;0.140243127;0.140105132
0.010884354;0.141059720;0.140918539
0.010907029;0.141841669;0.141697284
0.010929705;0.142588765;0.142441158
0.010952381;0.143300844;0.143149999
0.010975057;0.143977727;0.143823628
0.010997732;0.144619251;0.144461884
0.011020408;0.145225236;0.145064586
0.011043084;0.145795579;0.145631633
0.011065760;0.146330085;0.146162831
0.011088435;0.146828666;0.146658092
0.011111111;0.147291171;0.147117267
0.011133787;0.147717513;0.147540267
0.011156463;0.148107556;0.147926960
0.011179138;0.148461241;0.148277287
0.011201814;0.148778449;0.148591129
0.011224490;0.149059120;0.148868428
0.011247166;0.149303166;0.149109095
0.011269841;0.149510570;0.149313116
0.011292517;0.149681214;0.149480372
0.011315193;0.149815127;0.149610894
0.011337868;0.149912221;0.149704594
0.011360544;0.149972495;0.149761473
0.011383220;0.149995948;0.149781531
0.011405896;0.149982553;0.149764739
0.011428571;0.149932307;0.149711098
0.011451247;0.149845257;0.149620654
0.011473923;0.149721387;0.149493392
0.011496599;0.149560742;0.149329359
0.011519274;0.149363381;0.149128614
0.011541950;0.149129319;0.148891174
0.011564626;0.148858632;0.148617113
0.011587302;0.148551362;0.148306477
0.011609977;0.148207631;0.147959387
0.011632653;0.147827497;0.147575902
0.011655329;0.147411035;0.147156099
0.011678005;0.146958379;0.146700111
0.011700680;0.146469633;0.146208044
0.011723356;0.145944902;0.145680004
0.011746032;0.145384335;0.145116139
0.011768707;0.144788050;0.144516570
0.011791383;0.144156212;0.143881463
0.011814059;0.143488954;0.143210950
0.011836735;0.142786457;0.142505213
0.011859410;0.142048883;0.141764416
0.011882086;0.141276426;0.140988754
0.011904762;0.140469265;0.140178405
0.011927438;0.139627609;0.139333580
0.011950113;0.138751666;0.138454488
0.011972789;0.137841631;0.137541323
0.011995465;0.136897740;0.136594324
0.012018141;0.135920219;0.135613716
0.012040816;0.134909320;0.134599754
0.012063492;0.133865296;0.133552690
0.012086168;0.132788371;0.132472749
0.012108844;0.131678844;0.131360230
0.012131519;0.130536967;0.130215387
0.012154195;0.129363038;0.129038519
0.012176871;0.128157326;0.127829894
0.012199546;0.126920143;0.126589827
0.012222222;0.125651788;0.125318616
0.012244898;0.124352558;0.124016560
0.012267574;0.123022797;0.122684001
0.012290249;0.121662817;0.121321255
0.012312925;0.120272954;0.119928656
